
T16E4 000:560 SEGGER J-Link V4.90 Log File (0002ms, 0269ms total)
T16E4 000:560 DLL Compiled: Jul 28 2014 10:35:20 (0002ms, 0269ms total)
T16E4 000:560 Logging started @ 2016-04-21 18:36 (0002ms, 0269ms total)
T16E4 000:562 JLINK_SetWarnOutHandler(...) (0000ms, 0269ms total)
T16E4 000:562 JLINK_OpenEx(...)
Firmware: J-Link ARM-OB STM32 compiled Aug 22 2012 19:52:04
Hardware: V7.00
S/N: 20090928
Feature(s): RDI,FlashDL,FlashBP,JFlash,GDBFull  returns O.K. (0271ms, 0540ms total)
T16E4 000:833 JLINK_SetErrorOutHandler(...) (0000ms, 0540ms total)
T16E4 000:833 JLINK_ExecCommand("ProjectFile = "C:\Data\SCARA 3D Printer\Platform for Embedded System\PRJ\JLinkSettings.ini"", ...)  returns 0x00 (0002ms, 0542ms total)
T16E4 000:848 JLINK_ExecCommand("Device = STM32F429IG", ...)Device "STM32F429IG" selected (1024 KB flash, 192 KB RAM).  returns 0x00 (0037ms, 0579ms total)
T16E4 000:885 JLINK_ExecCommand("DisableConnectionTimeout", ...)  returns 0x01 (0000ms, 0579ms total)
T16E4 000:885 JLINK_GetHardwareVersion()  returns 0x11170 (0000ms, 0579ms total)
T16E4 000:885 JLINK_GetDLLVersion()  returns 49000 (0000ms, 0579ms total)
T16E4 000:885 JLINK_GetFirmwareString(...) (0000ms, 0579ms total)
T16E4 000:917 JLINK_GetDLLVersion()  returns 49000 (0000ms, 0579ms total)
T16E4 000:917 JLINK_GetCompileDateTime() (0000ms, 0579ms total)
T16E4 000:921 JLINK_GetFirmwareString(...) (0000ms, 0579ms total)
T16E4 000:925 JLINK_GetHardwareVersion()  returns 0x11170 (0000ms, 0579ms total)
T16E4 000:942 JLINK_TIF_Select(JLINKARM_TIF_SWD)  returns 0x00 (0001ms, 0580ms total)
T16E4 000:944 JLINK_SetSpeed(2000) (0000ms, 0581ms total)
T16E4 000:944 JLINK_GetId() >0x108 TIF>Found SWD-DP with ID 0x2BA01477 >0x0D TIF> >0x28 TIF> >0x0D TIF> >0x28 TIF> >0x0D TIF> >0x21 TIF> >0x0D TIF> >0x28 TIF> >0x0D TIF> >0x28 TIF> >0x0D TIF> >0x28 TIF> >0x0D TIF> >0x21 TIF> >0x0D TIF> >0x21 TIF> >0x0D TIF> >0x28 TIF> >0x0D TIF> >0x21 TIF> >0x0D TIF> >0x21 TIF> >0x0D TIF> >0x28 TIF> >0x0D TIF> >0x21 TIF> >0x0D TIF> >0x21 TIF> >0x108 TIF>Found SWD-DP with ID 0x2BA01477 >0x0D TIF> >0x21 TIF> >0x0D TIF> >0x28 TIF> >0x0D TIF> >0x28 TIF> >0x0D TIF> >0x21 TIF>
 >0x0D TIF> >0x28 TIF> >0x0D TIF> >0x21 TIF> >0x0D TIF> >0x21 TIF> >0x0D TIF> >0x21 TIF> >0x0D TIF> >0x21 TIF> >0x0D TIF> >0x28 TIF> >0x0D TIF> >0x28 TIF> >0x0D TIF> >0x21 TIF> >0x0D TIF> >0x28 TIF> >0x0D TIF> >0x28 TIF> >0x0D TIF> >0x28 TIF> >0x0D TIF> >0x21 TIF> >0x0D TIF> >0x21 TIF> >0x0D TIF> >0x28 TIF> >0x0D TIF> >0x21 TIF> >0x0D TIF> >0x21 TIF>Found Cortex-M4 r0p1, Little endian. -- CPU_WriteMem(4 bytes @ 0xE0002000) -- CPU_ReadMem(4 bytes @ 0xE000EDF0) -- CPU_ReadMem(4 bytes @ 0xE0002000)
FPUnit: 6 code (BP) slots and 2 literal slots -- CPU_ReadMem(4 bytes @ 0xE000EDFC) -- CPU_ReadMem(4 bytes @ 0xE0001000) -- CPU_WriteMem(4 bytes @ 0xE0001000) -- CPU_ReadMem(4 bytes @ 0xE00FF010)TPIU fitted. -- CPU_ReadMem(4 bytes @ 0xE00FF014)ETM fitted. -- CPU_ReadMem(4 bytes @ 0xE00FF018) >0x0D TIF> >0x21 TIF>  returns 0x2BA01477 (0054ms, 0635ms total)
T16E4 000:998 JLINK_GetDeviceFamily()  returns 14 (0000ms, 0635ms total)
T16E4 001:006 JLINK_ReadMem (0xE00FFFF0, 0x0010 Bytes, ...) -- CPU is running -- CPU_ReadMem(16 bytes @ 0xE00FFFF0) - Data: 0D 00 00 00 10 00 00 00 05 00 00 00 B1 00 00 00  returns 0x00 (0001ms, 0636ms total)
T16E4 001:007 JLINK_ReadMem (0xE00FFFD0, 0x0020 Bytes, ...) -- CPU is running -- CPU_ReadMem(32 bytes @ 0xE00FFFD0) - Data: 00 00 00 00 00 00 00 00 00 00 00 00 00 00 00 00 ...  returns 0x00 (0001ms, 0637ms total)
T16E4 001:008 JLINK_ReadMem (0xE00FF000, 0x0018 Bytes, ...) -- CPU is running -- CPU_ReadMem(24 bytes @ 0xE00FF000) - Data: 03 F0 F0 FF 03 20 F0 FF 03 30 F0 FF 03 10 F0 FF ...  returns 0x00 (0002ms, 0639ms total)
T16E4 001:010 JLINK_ReadMemU32(0xE000ED00, 0x0001 Items, ...) -- CPU is running -- CPU_ReadMem(4 bytes @ 0xE000ED00) - Data: 41 C2 0F 41  returns 0x01 (0001ms, 0640ms total)
T16E4 001:011 JLINK_ReadMemU32(0xE000EF40, 0x0001 Items, ...) -- CPU is running -- CPU_ReadMem(4 bytes @ 0xE000EF40) - Data: 21 00 11 10  returns 0x01 (0001ms, 0641ms total)
T16E4 001:012 JLINK_ReadMemU32(0xE000EF44, 0x0001 Items, ...) -- CPU is running -- CPU_ReadMem(4 bytes @ 0xE000EF44) - Data: 11 00 00 11  returns 0x01 (0000ms, 0641ms total)
T16E4 001:012 JLINK_SetResetType(JLINKARM_RESET_TYPE_NORMAL)  returns JLINKARM_RESET_TYPE_NORMAL (0001ms, 0642ms total)
T16E4 001:013 JLINK_Reset() -- CPU is running -- CPU_WriteMem(4 bytes @ 0xE000EDF0) -- CPU is running -- CPU_WriteMem(4 bytes @ 0xE000EDFC) >0x35 TIF> -- CPU is running -- CPU_WriteMem(4 bytes @ 0xE000ED0C) -- CPU is running -- CPU_ReadMem(4 bytes @ 0xE000EDF0) -- CPU is running -- CPU_ReadMem(4 bytes @ 0xE000EDF0) -- CPU is running -- CPU_WriteMem(4 bytes @ 0xE000EDF0) -- CPU is running -- CPU_WriteMem(4 bytes @ 0xE000EDFC) -- CPU is running -- CPU_ReadMem(4 bytes @ 0xE000EDF0)
 -- CPU_WriteMem(4 bytes @ 0xE0002000) -- CPU_ReadMem(4 bytes @ 0xE000EDFC) -- CPU_ReadMem(4 bytes @ 0xE0001000) (0020ms, 0662ms total)
T16E4 001:033 JLINK_Halt()  returns 0x00 (0000ms, 0662ms total)
T16E4 001:033 JLINK_IsHalted()  returns TRUE (0000ms, 0662ms total)
T16E4 001:033 JLINK_ReadMemU32(0xE000EDF0, 0x0001 Items, ...) -- CPU_ReadMem(4 bytes @ 0xE000EDF0) - Data: 03 00 03 00  returns 0x01 (0001ms, 0663ms total)
T16E4 001:034 JLINK_WriteU32(0xE000EDF0, 0xA05F0003) -- CPU_WriteMem(4 bytes @ 0xE000EDF0)  returns 0x00 (0000ms, 0663ms total)
T16E4 001:034 JLINK_WriteU32(0xE000EDFC, 0x01000000) -- CPU_WriteMem(4 bytes @ 0xE000EDFC)  returns 0x00 (0001ms, 0664ms total)
T16E4 001:049 JLINK_GetHWStatus(...)  returns 0x00 (0000ms, 0664ms total)
T16E4 001:063 JLINK_GetNumBPUnits(Type = 0xFFFFFF00)  returns 0x06 (0000ms, 0664ms total)
T16E4 001:063 JLINK_GetNumBPUnits(Type = 0xF0)  returns 0x2000 (0000ms, 0664ms total)
T16E4 001:063 JLINK_GetNumWPUnits()  returns 0x04 (0001ms, 0665ms total)
T16E4 001:081 JLINK_GetSpeed()  returns 0x7D0 (0000ms, 0665ms total)
T16E4 001:087 JLINK_ReadMemU32(0xE000E004, 0x0001 Items, ...) -- CPU_ReadMem(4 bytes @ 0xE000E004) - Data: 02 00 00 00  returns 0x01 (0001ms, 0666ms total)
T16E4 001:088 JLINK_ReadMemU32(0xE000E004, 0x0001 Items, ...) -- CPU_ReadMem(4 bytes @ 0xE000E004) - Data: 02 00 00 00  returns 0x01 (0001ms, 0667ms total)
T16E4 001:089 JLINK_WriteMem(0xE0001000, 0x001C Bytes, ...) - Data: 01 00 00 00 00 00 00 00 00 00 00 00 00 00 00 00 ... -- CPU_WriteMem(28 bytes @ 0xE0001000)  returns 0x1C (0001ms, 0668ms total)
T16E4 001:090 JLINK_ReadMem (0xE0001000, 0x001C Bytes, ...) -- CPU_ReadMem(28 bytes @ 0xE0001000) - Data: 01 00 00 40 00 00 00 00 00 00 00 00 00 00 00 00 ...  returns 0x00 (0001ms, 0669ms total)
T16E4 001:091 JLINK_Halt()  returns 0x00 (0000ms, 0669ms total)
T16E4 001:091 JLINK_IsHalted()  returns TRUE (0000ms, 0669ms total)
T16E4 001:094 JLINK_WriteMem(0x20000000, 0x0180 Bytes, ...) - Data: 00 BE 0A E0 0D 78 2D 06 68 40 08 24 40 00 00 D3 ... -- CPU_WriteMem(384 bytes @ 0x20000000)  returns 0x180 (0006ms, 0675ms total)
T16E4 001:100 JLINK_WriteReg(R0, 0x08000000)  returns 0x00 (0000ms, 0675ms total)
T16E4 001:100 JLINK_WriteReg(R1, 0x017D7840)  returns 0x00 (0000ms, 0675ms total)
T16E4 001:100 JLINK_WriteReg(R2, 0x00000001)  returns 0x00 (0000ms, 0675ms total)
T16E4 001:100 JLINK_WriteReg(R3, 0x00000000)  returns 0x00 (0000ms, 0675ms total)
T16E4 001:100 JLINK_WriteReg(R4, 0x00000000)  returns 0x00 (0000ms, 0675ms total)
T16E4 001:100 JLINK_WriteReg(R5, 0x00000000)  returns 0x00 (0000ms, 0675ms total)
T16E4 001:100 JLINK_WriteReg(R6, 0x00000000)  returns 0x00 (0000ms, 0675ms total)
T16E4 001:100 JLINK_WriteReg(R7, 0x00000000)  returns 0x00 (0000ms, 0675ms total)
T16E4 001:100 JLINK_WriteReg(R8, 0x00000000)  returns 0x00 (0000ms, 0675ms total)
T16E4 001:100 JLINK_WriteReg(R9, 0x2000017C)  returns 0x00 (0000ms, 0675ms total)
T16E4 001:100 JLINK_WriteReg(R10, 0x00000000)  returns 0x00 (0000ms, 0675ms total)
T16E4 001:100 JLINK_WriteReg(R11, 0x00000000)  returns 0x00 (0000ms, 0675ms total)
T16E4 001:100 JLINK_WriteReg(R12, 0x00000000)  returns 0x00 (0000ms, 0675ms total)
T16E4 001:100 JLINK_WriteReg(R13 (SP), 0x20000800)  returns 0x00 (0000ms, 0675ms total)
T16E4 001:100 JLINK_WriteReg(R14, 0x20000001)  returns 0x00 (0001ms, 0676ms total)
T16E4 001:101 JLINK_WriteReg(R15 (PC), 0x20000054)  returns 0x00 (0000ms, 0676ms total)
T16E4 001:101 JLINK_WriteReg(XPSR, 0x01000000)  returns 0x00 (0000ms, 0676ms total)
T16E4 001:101 JLINK_WriteReg(MSP, 0x20000800)  returns 0x00 (0000ms, 0676ms total)
T16E4 001:101 JLINK_WriteReg(PSP, 0x20000800)  returns 0x00 (0000ms, 0676ms total)
T16E4 001:101 JLINK_WriteReg(CFBP, 0x00000000)  returns 0x00 (0000ms, 0676ms total)
T16E4 001:101 JLINK_SetBPEx(Addr = 0x20000000, Type = 0xFFFFFFF2) -- CPU_ReadMem(2 bytes @ 0x20000000)  returns 0x00000001 (0001ms, 0677ms total)
T16E4 001:102 JLINK_Go() -- CPU_WriteMem(2 bytes @ 0x20000000) -- CPU_WriteMem(4 bytes @ 0xE0002008) -- CPU_WriteMem(4 bytes @ 0xE000200C) -- CPU_WriteMem(4 bytes @ 0xE0002010) -- CPU_WriteMem(4 bytes @ 0xE0002014) -- CPU_WriteMem(4 bytes @ 0xE0002018) -- CPU_WriteMem(4 bytes @ 0xE000201C) -- CPU_WriteMem(4 bytes @ 0xE0001004) (0008ms, 0685ms total)
T16E4 001:110 JLINK_IsHalted() -- CPU_ReadMem(2 bytes @ 0x20000000)  returns TRUE (0004ms, 0689ms total)
T16E4 001:114 JLINK_ReadReg(R15 (PC))  returns 0x20000000 (0000ms, 0685ms total)
T16E4 001:114 JLINK_ClrBPEx(BPHandle = 0x00000001)  returns 0x00 (0000ms, 0685ms total)
T16E4 001:114 JLINK_ReadReg(R0)  returns 0x00000000 (0000ms, 0685ms total)
T16E4 001:114 JLINK_WriteReg(R0, 0x08000000)  returns 0x00 (0000ms, 0685ms total)
T16E4 001:114 JLINK_WriteReg(R1, 0x00004000)  returns 0x00 (0000ms, 0685ms total)
T16E4 001:114 JLINK_WriteReg(R2, 0x000000FF)  returns 0x00 (0000ms, 0685ms total)
T16E4 001:114 JLINK_WriteReg(R3, 0x00000000)  returns 0x00 (0001ms, 0686ms total)
T16E4 001:115 JLINK_WriteReg(R4, 0x00000000)  returns 0x00 (0000ms, 0686ms total)
T16E4 001:115 JLINK_WriteReg(R5, 0x00000000)  returns 0x00 (0000ms, 0686ms total)
T16E4 001:115 JLINK_WriteReg(R6, 0x00000000)  returns 0x00 (0000ms, 0686ms total)
T16E4 001:115 JLINK_WriteReg(R7, 0x00000000)  returns 0x00 (0000ms, 0686ms total)
T16E4 001:115 JLINK_WriteReg(R8, 0x00000000)  returns 0x00 (0000ms, 0686ms total)
T16E4 001:115 JLINK_WriteReg(R9, 0x2000017C)  returns 0x00 (0000ms, 0686ms total)
T16E4 001:115 JLINK_WriteReg(R10, 0x00000000)  returns 0x00 (0000ms, 0686ms total)
T16E4 001:115 JLINK_WriteReg(R11, 0x00000000)  returns 0x00 (0000ms, 0686ms total)
T16E4 001:115 JLINK_WriteReg(R12, 0x00000000)  returns 0x00 (0000ms, 0686ms total)
T16E4 001:115 JLINK_WriteReg(R13 (SP), 0x20000800)  returns 0x00 (0000ms, 0686ms total)
T16E4 001:115 JLINK_WriteReg(R14, 0x20000001)  returns 0x00 (0000ms, 0686ms total)
T16E4 001:115 JLINK_WriteReg(R15 (PC), 0x20000020)  returns 0x00 (0000ms, 0686ms total)
T16E4 001:115 JLINK_WriteReg(XPSR, 0x01000000)  returns 0x00 (0000ms, 0686ms total)
T16E4 001:115 JLINK_WriteReg(MSP, 0x20000800)  returns 0x00 (0001ms, 0687ms total)
T16E4 001:116 JLINK_WriteReg(PSP, 0x20000800)  returns 0x00 (0000ms, 0687ms total)
T16E4 001:116 JLINK_WriteReg(CFBP, 0x00000000)  returns 0x00 (0000ms, 0687ms total)
T16E4 001:116 JLINK_SetBPEx(Addr = 0x20000000, Type = 0xFFFFFFF2)  returns 0x00000002 (0000ms, 0687ms total)
T16E4 001:116 JLINK_Go() (0002ms, 0689ms total)
T16E4 001:118 JLINK_IsHalted() -- CPU_ReadMem(2 bytes @ 0x20000000)  returns TRUE (0004ms, 0693ms total)
T16E4 001:122 JLINK_ReadReg(R15 (PC))  returns 0x20000000 (0000ms, 0689ms total)
T16E4 001:122 JLINK_ClrBPEx(BPHandle = 0x00000002)  returns 0x00 (0000ms, 0689ms total)
T16E4 001:122 JLINK_ReadReg(R0)  returns 0x00000001 (0000ms, 0689ms total)
T16E4 001:122 JLINK_WriteReg(R0, 0x08000000)  returns 0x00 (0001ms, 0690ms total)
T16E4 001:123 JLINK_WriteReg(R1, 0x00004000)  returns 0x00 (0000ms, 0690ms total)
T16E4 001:123 JLINK_WriteReg(R2, 0x000000FF)  returns 0x00 (0000ms, 0690ms total)
T16E4 001:123 JLINK_WriteReg(R3, 0x00000000)  returns 0x00 (0000ms, 0690ms total)
T16E4 001:123 JLINK_WriteReg(R4, 0x00000000)  returns 0x00 (0000ms, 0690ms total)
T16E4 001:123 JLINK_WriteReg(R5, 0x00000000)  returns 0x00 (0000ms, 0690ms total)
T16E4 001:123 JLINK_WriteReg(R6, 0x00000000)  returns 0x00 (0000ms, 0690ms total)
T16E4 001:123 JLINK_WriteReg(R7, 0x00000000)  returns 0x00 (0000ms, 0690ms total)
T16E4 001:123 JLINK_WriteReg(R8, 0x00000000)  returns 0x00 (0000ms, 0690ms total)
T16E4 001:123 JLINK_WriteReg(R9, 0x2000017C)  returns 0x00 (0000ms, 0690ms total)
T16E4 001:123 JLINK_WriteReg(R10, 0x00000000)  returns 0x00 (0000ms, 0690ms total)
T16E4 001:123 JLINK_WriteReg(R11, 0x00000000)  returns 0x00 (0000ms, 0690ms total)
T16E4 001:123 JLINK_WriteReg(R12, 0x00000000)  returns 0x00 (0000ms, 0690ms total)
T16E4 001:123 JLINK_WriteReg(R13 (SP), 0x20000800)  returns 0x00 (0000ms, 0690ms total)
T16E4 001:124 JLINK_WriteReg(R14, 0x20000001)  returns 0x00 (0000ms, 0690ms total)
T16E4 001:124 JLINK_WriteReg(R15 (PC), 0x200000BC)  returns 0x00 (0000ms, 0690ms total)
T16E4 001:124 JLINK_WriteReg(XPSR, 0x01000000)  returns 0x00 (0000ms, 0690ms total)
T16E4 001:124 JLINK_WriteReg(MSP, 0x20000800)  returns 0x00 (0000ms, 0690ms total)
T16E4 001:124 JLINK_WriteReg(PSP, 0x20000800)  returns 0x00 (0000ms, 0690ms total)
T16E4 001:124 JLINK_WriteReg(CFBP, 0x00000000)  returns 0x00 (0000ms, 0690ms total)
T16E4 001:124 JLINK_SetBPEx(Addr = 0x20000000, Type = 0xFFFFFFF2)  returns 0x00000003 (0000ms, 0690ms total)
T16E4 001:124 JLINK_Go() (0002ms, 0692ms total)
T16E4 001:126 JLINK_IsHalted()  returns FALSE (0001ms, 0693ms total)
T16E4 001:215 JLINK_IsHalted()  returns FALSE (0000ms, 0692ms total)
T16E4 001:218 JLINK_IsHalted()  returns FALSE (0000ms, 0692ms total)
T16E4 001:240 JLINK_IsHalted()  returns FALSE (0000ms, 0692ms total)
T16E4 001:242 JLINK_IsHalted()  returns FALSE (0001ms, 0693ms total)
T16E4 001:245 JLINK_IsHalted()  returns FALSE (0000ms, 0692ms total)
T16E4 001:247 JLINK_IsHalted()  returns FALSE (0000ms, 0692ms total)
T16E4 001:257 JLINK_IsHalted()  returns FALSE (0000ms, 0692ms total)
T16E4 001:259 JLINK_IsHalted()  returns FALSE (0001ms, 0693ms total)
T16E4 001:262 JLINK_IsHalted()  returns FALSE (0000ms, 0692ms total)
T16E4 001:264 JLINK_IsHalted()  returns FALSE (0001ms, 0693ms total)
T16E4 001:267 JLINK_IsHalted()  returns FALSE (0001ms, 0693ms total)
T16E4 001:272 JLINK_IsHalted()  returns FALSE (0000ms, 0692ms total)
T16E4 001:274 JLINK_IsHalted()  returns FALSE (0000ms, 0692ms total)
T16E4 001:282 JLINK_IsHalted()  returns FALSE (0000ms, 0692ms total)
T16E4 001:284 JLINK_IsHalted()  returns FALSE (0000ms, 0692ms total)
T16E4 001:286 JLINK_IsHalted()  returns FALSE (0000ms, 0692ms total)
T16E4 001:288 JLINK_IsHalted()  returns FALSE (0001ms, 0693ms total)
T16E4 001:291 JLINK_IsHalted()  returns FALSE (0001ms, 0693ms total)
T16E4 001:294 JLINK_IsHalted()  returns FALSE (0001ms, 0693ms total)
T16E4 001:299 JLINK_IsHalted()  returns FALSE (0000ms, 0692ms total)
T16E4 001:301 JLINK_IsHalted()  returns FALSE (0000ms, 0692ms total)
T16E4 001:303 JLINK_IsHalted()  returns FALSE (0000ms, 0692ms total)
T16E4 001:305 JLINK_IsHalted()  returns FALSE (0001ms, 0693ms total)
T16E4 001:308 JLINK_IsHalted()  returns FALSE (0000ms, 0692ms total)
T16E4 001:314 JLINK_IsHalted()  returns FALSE (0000ms, 0692ms total)
T16E4 001:316 JLINK_IsHalted()  returns FALSE (0001ms, 0693ms total)
T16E4 001:319 JLINK_IsHalted()  returns FALSE (0001ms, 0693ms total)
T16E4 001:321 JLINK_IsHalted()  returns FALSE (0000ms, 0692ms total)
T16E4 001:323 JLINK_IsHalted()  returns FALSE (0000ms, 0692ms total)
T16E4 001:326 JLINK_IsHalted()  returns FALSE (0000ms, 0692ms total)
T16E4 001:350 JLINK_IsHalted()  returns FALSE (0001ms, 0693ms total)
T16E4 001:353 JLINK_IsHalted()  returns FALSE (0000ms, 0692ms total)
T16E4 001:355 JLINK_IsHalted()  returns FALSE (0000ms, 0692ms total)
T16E4 001:360 JLINK_IsHalted()  returns FALSE (0000ms, 0692ms total)
T16E4 001:362 JLINK_IsHalted()  returns FALSE (0000ms, 0692ms total)
T16E4 001:364 JLINK_IsHalted()  returns FALSE (0000ms, 0692ms total)
T16E4 001:366 JLINK_IsHalted()  returns FALSE (0000ms, 0692ms total)
T16E4 001:368 JLINK_IsHalted()  returns FALSE (0000ms, 0692ms total)
T16E4 001:370 JLINK_IsHalted()  returns FALSE (0000ms, 0692ms total)
T16E4 001:376 JLINK_IsHalted()  returns FALSE (0001ms, 0693ms total)
T16E4 001:379 JLINK_IsHalted()  returns FALSE (0001ms, 0693ms total)
T16E4 001:382 JLINK_IsHalted()  returns FALSE (0000ms, 0692ms total)
T16E4 001:384 JLINK_IsHalted()  returns FALSE (0001ms, 0693ms total)
T16E4 001:387 JLINK_IsHalted()  returns FALSE (0000ms, 0692ms total)
T16E4 001:390 JLINK_IsHalted()  returns FALSE (0000ms, 0692ms total)
T16E4 001:397 JLINK_IsHalted()  returns FALSE (0001ms, 0693ms total)
T16E4 001:400 JLINK_IsHalted()  returns FALSE (0001ms, 0693ms total)
T16E4 001:408 JLINK_IsHalted()  returns FALSE (0001ms, 0693ms total)
T16E4 001:411 JLINK_IsHalted()  returns FALSE (0001ms, 0693ms total)
T16E4 001:413 JLINK_IsHalted()  returns FALSE (0001ms, 0693ms total)
T16E4 001:416 JLINK_IsHalted()  returns FALSE (0000ms, 0692ms total)
T16E4 001:418 JLINK_IsHalted()  returns FALSE (0001ms, 0693ms total)
T16E4 001:421 JLINK_IsHalted()  returns FALSE (0001ms, 0693ms total)
T16E4 001:429 JLINK_IsHalted()  returns FALSE (0001ms, 0693ms total)
T16E4 001:432 JLINK_IsHalted()  returns FALSE (0000ms, 0692ms total)
T16E4 001:458 JLINK_IsHalted()  returns FALSE (0001ms, 0693ms total)
T16E4 001:461 JLINK_IsHalted()  returns FALSE (0000ms, 0692ms total)
T16E4 001:463 JLINK_IsHalted()  returns FALSE (0000ms, 0692ms total)
T16E4 001:468 JLINK_IsHalted()  returns FALSE (0000ms, 0692ms total)
T16E4 001:470 JLINK_IsHalted()  returns FALSE (0001ms, 0693ms total)
T16E4 001:473 JLINK_IsHalted()  returns FALSE (0000ms, 0692ms total)
T16E4 001:475 JLINK_IsHalted()  returns FALSE (0000ms, 0692ms total)
T16E4 001:477 JLINK_IsHalted()  returns FALSE (0001ms, 0693ms total)
T16E4 001:480 JLINK_IsHalted()  returns FALSE (0001ms, 0693ms total)
T16E4 001:482 JLINK_IsHalted()  returns FALSE (0000ms, 0692ms total)
T16E4 001:484 JLINK_IsHalted()  returns FALSE (0000ms, 0692ms total)
T16E4 001:486 JLINK_IsHalted()  returns FALSE (0001ms, 0694ms total)
T16E4 001:491 JLINK_IsHalted()  returns FALSE (0000ms, 0693ms total)
T16E4 001:493 JLINK_IsHalted()  returns FALSE (0000ms, 0693ms total)
T16E4 001:495 JLINK_IsHalted()  returns FALSE (0000ms, 0693ms total)
T16E4 001:503 JLINK_IsHalted() -- CPU_ReadMem(2 bytes @ 0x20000000)  returns TRUE (0005ms, 0698ms total)
T16E4 001:508 JLINK_ReadReg(R15 (PC))  returns 0x20000000 (0000ms, 0693ms total)
T16E4 001:508 JLINK_ClrBPEx(BPHandle = 0x00000003)  returns 0x00 (0000ms, 0693ms total)
T16E4 001:508 JLINK_ReadReg(R0)  returns 0x00000000 (0000ms, 0693ms total)
T16E4 001:508 JLINK_WriteReg(R0, 0x08004000)  returns 0x00 (0001ms, 0694ms total)
T16E4 001:509 JLINK_WriteReg(R1, 0x00004000)  returns 0x00 (0000ms, 0694ms total)
T16E4 001:509 JLINK_WriteReg(R2, 0x000000FF)  returns 0x00 (0000ms, 0694ms total)
T16E4 001:509 JLINK_WriteReg(R3, 0x00000000)  returns 0x00 (0000ms, 0694ms total)
T16E4 001:509 JLINK_WriteReg(R4, 0x00000000)  returns 0x00 (0000ms, 0694ms total)
T16E4 001:509 JLINK_WriteReg(R5, 0x00000000)  returns 0x00 (0000ms, 0694ms total)
T16E4 001:509 JLINK_WriteReg(R6, 0x00000000)  returns 0x00 (0000ms, 0694ms total)
T16E4 001:509 JLINK_WriteReg(R7, 0x00000000)  returns 0x00 (0000ms, 0694ms total)
T16E4 001:509 JLINK_WriteReg(R8, 0x00000000)  returns 0x00 (0000ms, 0694ms total)
T16E4 001:509 JLINK_WriteReg(R9, 0x2000017C)  returns 0x00 (0000ms, 0694ms total)
T16E4 001:509 JLINK_WriteReg(R10, 0x00000000)  returns 0x00 (0000ms, 0694ms total)
T16E4 001:509 JLINK_WriteReg(R11, 0x00000000)  returns 0x00 (0000ms, 0694ms total)
T16E4 001:509 JLINK_WriteReg(R12, 0x00000000)  returns 0x00 (0000ms, 0694ms total)
T16E4 001:509 JLINK_WriteReg(R13 (SP), 0x20000800)  returns 0x00 (0000ms, 0694ms total)
T16E4 001:510 JLINK_WriteReg(R14, 0x20000001)  returns 0x00 (0000ms, 0695ms total)
T16E4 001:510 JLINK_WriteReg(R15 (PC), 0x20000020)  returns 0x00 (0000ms, 0695ms total)
T16E4 001:510 JLINK_WriteReg(XPSR, 0x01000000)  returns 0x00 (0000ms, 0695ms total)
T16E4 001:510 JLINK_WriteReg(MSP, 0x20000800)  returns 0x00 (0000ms, 0695ms total)
T16E4 001:510 JLINK_WriteReg(PSP, 0x20000800)  returns 0x00 (0000ms, 0695ms total)
T16E4 001:510 JLINK_WriteReg(CFBP, 0x00000000)  returns 0x00 (0000ms, 0695ms total)
T16E4 001:510 JLINK_SetBPEx(Addr = 0x20000000, Type = 0xFFFFFFF2)  returns 0x00000004 (0000ms, 0695ms total)
T16E4 001:510 JLINK_Go() (0003ms, 0698ms total)
T16E4 001:513 JLINK_IsHalted() -- CPU_ReadMem(2 bytes @ 0x20000000)  returns TRUE (0003ms, 0701ms total)
T16E4 001:516 JLINK_ReadReg(R15 (PC))  returns 0x20000000 (0000ms, 0698ms total)
T16E4 001:516 JLINK_ClrBPEx(BPHandle = 0x00000004)  returns 0x00 (0000ms, 0698ms total)
T16E4 001:516 JLINK_ReadReg(R0)  returns 0x00000001 (0000ms, 0698ms total)
T16E4 001:517 JLINK_WriteReg(R0, 0x08004000)  returns 0x00 (0000ms, 0699ms total)
T16E4 001:517 JLINK_WriteReg(R1, 0x00004000)  returns 0x00 (0000ms, 0699ms total)
T16E4 001:517 JLINK_WriteReg(R2, 0x000000FF)  returns 0x00 (0000ms, 0699ms total)
T16E4 001:517 JLINK_WriteReg(R3, 0x00000000)  returns 0x00 (0000ms, 0699ms total)
T16E4 001:517 JLINK_WriteReg(R4, 0x00000000)  returns 0x00 (0000ms, 0699ms total)
T16E4 001:517 JLINK_WriteReg(R5, 0x00000000)  returns 0x00 (0000ms, 0699ms total)
T16E4 001:517 JLINK_WriteReg(R6, 0x00000000)  returns 0x00 (0000ms, 0699ms total)
T16E4 001:517 JLINK_WriteReg(R7, 0x00000000)  returns 0x00 (0000ms, 0699ms total)
T16E4 001:517 JLINK_WriteReg(R8, 0x00000000)  returns 0x00 (0000ms, 0699ms total)
T16E4 001:517 JLINK_WriteReg(R9, 0x2000017C)  returns 0x00 (0000ms, 0699ms total)
T16E4 001:517 JLINK_WriteReg(R10, 0x00000000)  returns 0x00 (0000ms, 0699ms total)
T16E4 001:517 JLINK_WriteReg(R11, 0x00000000)  returns 0x00 (0000ms, 0699ms total)
T16E4 001:517 JLINK_WriteReg(R12, 0x00000000)  returns 0x00 (0000ms, 0699ms total)
T16E4 001:517 JLINK_WriteReg(R13 (SP), 0x20000800)  returns 0x00 (0000ms, 0699ms total)
T16E4 001:517 JLINK_WriteReg(R14, 0x20000001)  returns 0x00 (0001ms, 0700ms total)
T16E4 001:518 JLINK_WriteReg(R15 (PC), 0x200000BC)  returns 0x00 (0000ms, 0700ms total)
T16E4 001:518 JLINK_WriteReg(XPSR, 0x01000000)  returns 0x00 (0000ms, 0700ms total)
T16E4 001:518 JLINK_WriteReg(MSP, 0x20000800)  returns 0x00 (0000ms, 0700ms total)
T16E4 001:518 JLINK_WriteReg(PSP, 0x20000800)  returns 0x00 (0000ms, 0700ms total)
T16E4 001:518 JLINK_WriteReg(CFBP, 0x00000000)  returns 0x00 (0000ms, 0700ms total)
T16E4 001:518 JLINK_SetBPEx(Addr = 0x20000000, Type = 0xFFFFFFF2)  returns 0x00000005 (0000ms, 0700ms total)
T16E4 001:518 JLINK_Go() (0003ms, 0703ms total)
T16E4 001:521 JLINK_IsHalted()  returns FALSE (0000ms, 0703ms total)
T16E4 001:526 JLINK_IsHalted()  returns FALSE (0000ms, 0703ms total)
T16E4 001:531 JLINK_IsHalted()  returns FALSE (0001ms, 0704ms total)
T16E4 001:534 JLINK_IsHalted()  returns FALSE (0001ms, 0704ms total)
T16E4 001:537 JLINK_IsHalted()  returns FALSE (0000ms, 0703ms total)
T16E4 001:539 JLINK_IsHalted()  returns FALSE (0001ms, 0704ms total)
T16E4 001:541 JLINK_IsHalted()  returns FALSE (0001ms, 0704ms total)
T16E4 001:544 JLINK_IsHalted()  returns FALSE (0000ms, 0703ms total)
T16E4 001:546 JLINK_IsHalted()  returns FALSE (0000ms, 0703ms total)
T16E4 001:570 JLINK_IsHalted()  returns FALSE (0000ms, 0703ms total)
T16E4 001:572 JLINK_IsHalted()  returns FALSE (0001ms, 0704ms total)
T16E4 001:575 JLINK_IsHalted()  returns FALSE (0000ms, 0703ms total)
T16E4 001:577 JLINK_IsHalted()  returns FALSE (0000ms, 0703ms total)
T16E4 001:582 JLINK_IsHalted()  returns FALSE (0001ms, 0704ms total)
T16E4 001:585 JLINK_IsHalted()  returns FALSE (0000ms, 0703ms total)
T16E4 001:587 JLINK_IsHalted()  returns FALSE (0000ms, 0703ms total)
T16E4 001:589 JLINK_IsHalted()  returns FALSE (0001ms, 0704ms total)
T16E4 001:594 JLINK_IsHalted()  returns FALSE (0000ms, 0703ms total)
T16E4 001:596 JLINK_IsHalted()  returns FALSE (0001ms, 0704ms total)
T16E4 001:599 JLINK_IsHalted()  returns FALSE (0000ms, 0703ms total)
T16E4 001:601 JLINK_IsHalted()  returns FALSE (0000ms, 0703ms total)
T16E4 001:603 JLINK_IsHalted()  returns FALSE (0001ms, 0705ms total)
T16E4 001:606 JLINK_IsHalted()  returns FALSE (0001ms, 0705ms total)
T16E4 001:609 JLINK_IsHalted()  returns FALSE (0000ms, 0704ms total)
T16E4 001:619 JLINK_IsHalted()  returns FALSE (0000ms, 0704ms total)
T16E4 001:624 JLINK_IsHalted()  returns FALSE (0000ms, 0704ms total)
T16E4 001:626 JLINK_IsHalted()  returns FALSE (0001ms, 0705ms total)
T16E4 001:629 JLINK_IsHalted()  returns FALSE (0000ms, 0704ms total)
T16E4 001:631 JLINK_IsHalted()  returns FALSE (0000ms, 0704ms total)
T16E4 001:633 JLINK_IsHalted()  returns FALSE (0001ms, 0705ms total)
T16E4 001:636 JLINK_IsHalted()  returns FALSE (0001ms, 0705ms total)
T16E4 001:639 JLINK_IsHalted()  returns FALSE (0000ms, 0704ms total)
T16E4 001:641 JLINK_IsHalted()  returns FALSE (0001ms, 0705ms total)
T16E4 001:646 JLINK_IsHalted()  returns FALSE (0000ms, 0704ms total)
T16E4 001:648 JLINK_IsHalted()  returns FALSE (0000ms, 0704ms total)
T16E4 001:650 JLINK_IsHalted()  returns FALSE (0001ms, 0705ms total)
T16E4 001:653 JLINK_IsHalted()  returns FALSE (0000ms, 0704ms total)
T16E4 001:655 JLINK_IsHalted()  returns FALSE (0000ms, 0704ms total)
T16E4 001:681 JLINK_IsHalted()  returns FALSE (0000ms, 0704ms total)
T16E4 001:687 JLINK_IsHalted()  returns FALSE (0000ms, 0704ms total)
T16E4 001:689 JLINK_IsHalted()  returns FALSE (0001ms, 0705ms total)
T16E4 001:691 JLINK_IsHalted()  returns FALSE (0001ms, 0705ms total)
T16E4 001:694 JLINK_IsHalted()  returns FALSE (0000ms, 0704ms total)
T16E4 001:696 JLINK_IsHalted()  returns FALSE (0000ms, 0704ms total)
T16E4 001:698 JLINK_IsHalted()  returns FALSE (0001ms, 0705ms total)
T16E4 001:701 JLINK_IsHalted()  returns FALSE (0001ms, 0705ms total)
T16E4 001:709 JLINK_IsHalted()  returns FALSE (0001ms, 0705ms total)
T16E4 001:712 JLINK_IsHalted()  returns FALSE (0001ms, 0705ms total)
T16E4 001:715 JLINK_IsHalted()  returns FALSE (0001ms, 0705ms total)
T16E4 001:723 JLINK_IsHalted()  returns FALSE (0000ms, 0704ms total)
T16E4 001:725 JLINK_IsHalted()  returns FALSE (0000ms, 0704ms total)
T16E4 001:727 JLINK_IsHalted()  returns FALSE (0001ms, 0705ms total)
T16E4 001:730 JLINK_IsHalted()  returns FALSE (0000ms, 0704ms total)
T16E4 001:732 JLINK_IsHalted()  returns FALSE (0000ms, 0704ms total)
T16E4 001:734 JLINK_IsHalted()  returns FALSE (0000ms, 0704ms total)
T16E4 001:737 JLINK_IsHalted()  returns FALSE (0000ms, 0704ms total)
T16E4 001:742 JLINK_IsHalted()  returns FALSE (0000ms, 0704ms total)
T16E4 001:744 JLINK_IsHalted()  returns FALSE (0000ms, 0704ms total)
T16E4 001:748 JLINK_IsHalted()  returns FALSE (0000ms, 0704ms total)
T16E4 001:750 JLINK_IsHalted()  returns FALSE (0000ms, 0704ms total)
T16E4 001:752 JLINK_IsHalted()  returns FALSE (0000ms, 0704ms total)
T16E4 001:754 JLINK_IsHalted()  returns FALSE (0000ms, 0704ms total)
T16E4 001:756 JLINK_IsHalted()  returns FALSE (0001ms, 0705ms total)
T16E4 001:759 JLINK_IsHalted()  returns FALSE (0000ms, 0704ms total)
T16E4 001:761 JLINK_IsHalted()  returns FALSE (0000ms, 0704ms total)
T16E4 001:763 JLINK_IsHalted()  returns FALSE (0000ms, 0704ms total)
T16E4 001:785 JLINK_IsHalted()  returns FALSE (0001ms, 0705ms total)
T16E4 001:788 JLINK_IsHalted()  returns FALSE (0000ms, 0704ms total)
T16E4 001:790 JLINK_IsHalted()  returns FALSE (0001ms, 0705ms total)
T16E4 001:793 JLINK_IsHalted()  returns FALSE (0000ms, 0704ms total)
T16E4 001:795 JLINK_IsHalted()  returns FALSE (0001ms, 0705ms total)
T16E4 001:800 JLINK_IsHalted()  returns FALSE (0000ms, 0704ms total)
T16E4 001:802 JLINK_IsHalted()  returns FALSE (0000ms, 0704ms total)
T16E4 001:804 JLINK_IsHalted()  returns FALSE (0000ms, 0704ms total)
T16E4 001:806 JLINK_IsHalted()  returns FALSE (0000ms, 0704ms total)
T16E4 001:812 JLINK_IsHalted()  returns FALSE (0000ms, 0704ms total)
T16E4 001:814 JLINK_IsHalted()  returns FALSE (0001ms, 0705ms total)
T16E4 001:817 JLINK_IsHalted()  returns FALSE (0000ms, 0704ms total)
T16E4 001:819 JLINK_IsHalted()  returns FALSE (0001ms, 0706ms total)
T16E4 001:822 JLINK_IsHalted()  returns FALSE (0001ms, 0706ms total)
T16E4 001:832 JLINK_IsHalted()  returns FALSE (0001ms, 0706ms total)
T16E4 001:835 JLINK_IsHalted()  returns FALSE (0000ms, 0705ms total)
T16E4 001:837 JLINK_IsHalted()  returns FALSE (0000ms, 0705ms total)
T16E4 001:839 JLINK_IsHalted()  returns FALSE (0001ms, 0706ms total)
T16E4 001:842 JLINK_IsHalted()  returns FALSE (0001ms, 0706ms total)
T16E4 001:847 JLINK_IsHalted()  returns FALSE (0001ms, 0706ms total)
T16E4 001:850 JLINK_IsHalted()  returns FALSE (0000ms, 0705ms total)
T16E4 001:852 JLINK_IsHalted()  returns FALSE (0001ms, 0706ms total)
T16E4 001:858 JLINK_IsHalted()  returns FALSE (0001ms, 0706ms total)
T16E4 001:861 JLINK_IsHalted()  returns FALSE (0000ms, 0705ms total)
T16E4 001:863 JLINK_IsHalted()  returns FALSE (0000ms, 0705ms total)
T16E4 001:865 JLINK_IsHalted()  returns FALSE (0001ms, 0706ms total)
T16E4 001:868 JLINK_IsHalted()  returns FALSE (0000ms, 0705ms total)
T16E4 001:870 JLINK_IsHalted()  returns FALSE (0000ms, 0705ms total)
T16E4 001:894 JLINK_IsHalted()  returns FALSE (0000ms, 0705ms total)
T16E4 001:896 JLINK_IsHalted()  returns FALSE (0000ms, 0705ms total)
T16E4 001:898 JLINK_IsHalted() -- CPU_ReadMem(2 bytes @ 0x20000000)  returns TRUE (0004ms, 0709ms total)
T16E4 001:902 JLINK_ReadReg(R15 (PC))  returns 0x20000000 (0000ms, 0705ms total)
T16E4 001:902 JLINK_ClrBPEx(BPHandle = 0x00000005)  returns 0x00 (0000ms, 0705ms total)
T16E4 001:902 JLINK_ReadReg(R0)  returns 0x00000000 (0000ms, 0705ms total)
T16E4 001:904 JLINK_WriteReg(R0, 0x00000001)  returns 0x00 (0000ms, 0705ms total)
T16E4 001:904 JLINK_WriteReg(R1, 0x00004000)  returns 0x00 (0000ms, 0705ms total)
T16E4 001:904 JLINK_WriteReg(R2, 0x000000FF)  returns 0x00 (0000ms, 0705ms total)
T16E4 001:904 JLINK_WriteReg(R3, 0x00000000)  returns 0x00 (0001ms, 0706ms total)
T16E4 001:905 JLINK_WriteReg(R4, 0x00000000)  returns 0x00 (0000ms, 0706ms total)
T16E4 001:905 JLINK_WriteReg(R5, 0x00000000)  returns 0x00 (0000ms, 0706ms total)
T16E4 001:905 JLINK_WriteReg(R6, 0x00000000)  returns 0x00 (0000ms, 0706ms total)
T16E4 001:905 JLINK_WriteReg(R7, 0x00000000)  returns 0x00 (0000ms, 0706ms total)
T16E4 001:905 JLINK_WriteReg(R8, 0x00000000)  returns 0x00 (0000ms, 0706ms total)
T16E4 001:905 JLINK_WriteReg(R9, 0x2000017C)  returns 0x00 (0000ms, 0706ms total)
T16E4 001:905 JLINK_WriteReg(R10, 0x00000000)  returns 0x00 (0000ms, 0706ms total)
T16E4 001:905 JLINK_WriteReg(R11, 0x00000000)  returns 0x00 (0000ms, 0706ms total)
T16E4 001:905 JLINK_WriteReg(R12, 0x00000000)  returns 0x00 (0000ms, 0706ms total)
T16E4 001:905 JLINK_WriteReg(R13 (SP), 0x20000800)  returns 0x00 (0000ms, 0706ms total)
T16E4 001:905 JLINK_WriteReg(R14, 0x20000001)  returns 0x00 (0000ms, 0706ms total)
T16E4 001:905 JLINK_WriteReg(R15 (PC), 0x20000082)  returns 0x00 (0000ms, 0706ms total)
T16E4 001:905 JLINK_WriteReg(XPSR, 0x01000000)  returns 0x00 (0000ms, 0706ms total)
T16E4 001:905 JLINK_WriteReg(MSP, 0x20000800)  returns 0x00 (0001ms, 0707ms total)
T16E4 001:906 JLINK_WriteReg(PSP, 0x20000800)  returns 0x00 (0000ms, 0707ms total)
T16E4 001:906 JLINK_WriteReg(CFBP, 0x00000000)  returns 0x00 (0000ms, 0707ms total)
T16E4 001:906 JLINK_SetBPEx(Addr = 0x20000000, Type = 0xFFFFFFF2)  returns 0x00000006 (0000ms, 0707ms total)
T16E4 001:906 JLINK_Go() (0002ms, 0709ms total)
T16E4 001:908 JLINK_IsHalted() -- CPU_ReadMem(2 bytes @ 0x20000000)  returns TRUE (0005ms, 0714ms total)
T16E4 001:913 JLINK_ReadReg(R15 (PC))  returns 0x20000000 (0000ms, 0709ms total)
T16E4 001:913 JLINK_ClrBPEx(BPHandle = 0x00000006)  returns 0x00 (0000ms, 0709ms total)
T16E4 001:913 JLINK_ReadReg(R0)  returns 0x00000000 (0000ms, 0709ms total)
T16E4 001:985 JLINK_WriteMem(0x20000000, 0x0180 Bytes, ...) - Data: 00 BE 0A E0 0D 78 2D 06 68 40 08 24 40 00 00 D3 ... -- CPU_WriteMem(384 bytes @ 0x20000000)  returns 0x180 (0006ms, 0715ms total)
T16E4 001:991 JLINK_WriteReg(R0, 0x08000000)  returns 0x00 (0000ms, 0715ms total)
T16E4 001:991 JLINK_WriteReg(R1, 0x017D7840)  returns 0x00 (0000ms, 0715ms total)
T16E4 001:991 JLINK_WriteReg(R2, 0x00000002)  returns 0x00 (0000ms, 0715ms total)
T16E4 001:991 JLINK_WriteReg(R3, 0x00000000)  returns 0x00 (0000ms, 0715ms total)
T16E4 001:991 JLINK_WriteReg(R4, 0x00000000)  returns 0x00 (0001ms, 0716ms total)
T16E4 001:992 JLINK_WriteReg(R5, 0x00000000)  returns 0x00 (0000ms, 0716ms total)
T16E4 001:992 JLINK_WriteReg(R6, 0x00000000)  returns 0x00 (0000ms, 0716ms total)
T16E4 001:992 JLINK_WriteReg(R7, 0x00000000)  returns 0x00 (0000ms, 0716ms total)
T16E4 001:992 JLINK_WriteReg(R8, 0x00000000)  returns 0x00 (0001ms, 0717ms total)
T16E4 001:993 JLINK_WriteReg(R9, 0x2000017C)  returns 0x00 (0000ms, 0717ms total)
T16E4 001:993 JLINK_WriteReg(R10, 0x00000000)  returns 0x00 (0000ms, 0717ms total)
T16E4 001:993 JLINK_WriteReg(R11, 0x00000000)  returns 0x00 (0000ms, 0717ms total)
T16E4 001:993 JLINK_WriteReg(R12, 0x00000000)  returns 0x00 (0000ms, 0717ms total)
T16E4 001:993 JLINK_WriteReg(R13 (SP), 0x20000800)  returns 0x00 (0000ms, 0717ms total)
T16E4 001:993 JLINK_WriteReg(R14, 0x20000001)  returns 0x00 (0000ms, 0717ms total)
T16E4 001:993 JLINK_WriteReg(R15 (PC), 0x20000054)  returns 0x00 (0000ms, 0717ms total)
T16E4 001:993 JLINK_WriteReg(XPSR, 0x01000000)  returns 0x00 (0000ms, 0717ms total)
T16E4 001:993 JLINK_WriteReg(MSP, 0x20000800)  returns 0x00 (0001ms, 0718ms total)
T16E4 001:994 JLINK_WriteReg(PSP, 0x20000800)  returns 0x00 (0000ms, 0718ms total)
T16E4 001:994 JLINK_WriteReg(CFBP, 0x00000000)  returns 0x00 (0000ms, 0718ms total)
T16E4 001:994 JLINK_SetBPEx(Addr = 0x20000000, Type = 0xFFFFFFF2) -- CPU_ReadMem(2 bytes @ 0x20000000)  returns 0x00000007 (0001ms, 0719ms total)
T16E4 001:995 JLINK_Go() -- CPU_WriteMem(2 bytes @ 0x20000000) (0003ms, 0722ms total)
T16E4 001:998 JLINK_IsHalted() -- CPU_ReadMem(2 bytes @ 0x20000000)  returns TRUE (0004ms, 0726ms total)
T16E4 002:002 JLINK_ReadReg(R15 (PC))  returns 0x20000000 (0000ms, 0722ms total)
T16E4 002:002 JLINK_ClrBPEx(BPHandle = 0x00000007)  returns 0x00 (0000ms, 0722ms total)
T16E4 002:002 JLINK_ReadReg(R0)  returns 0x00000000 (0000ms, 0722ms total)
T16E4 002:003 JLINK_WriteMem(0x20000180, 0x0400 Bytes, ...) - Data: 10 E1 01 20 8D 02 00 08 0D 23 00 08 63 19 00 08 ... -- CPU_WriteMem(1024 bytes @ 0x20000180)  returns 0x400 (0014ms, 0736ms total)
T16E4 002:017 JLINK_WriteReg(R0, 0x08000000)  returns 0x00 (0000ms, 0736ms total)
T16E4 002:017 JLINK_WriteReg(R1, 0x00000400)  returns 0x00 (0000ms, 0736ms total)
T16E4 002:017 JLINK_WriteReg(R2, 0x20000180)  returns 0x00 (0000ms, 0736ms total)
T16E4 002:017 JLINK_WriteReg(R3, 0x00000000)  returns 0x00 (0000ms, 0736ms total)
T16E4 002:017 JLINK_WriteReg(R4, 0x00000000)  returns 0x00 (0000ms, 0736ms total)
T16E4 002:017 JLINK_WriteReg(R5, 0x00000000)  returns 0x00 (0001ms, 0737ms total)
T16E4 002:018 JLINK_WriteReg(R6, 0x00000000)  returns 0x00 (0000ms, 0737ms total)
T16E4 002:018 JLINK_WriteReg(R7, 0x00000000)  returns 0x00 (0000ms, 0737ms total)
T16E4 002:018 JLINK_WriteReg(R8, 0x00000000)  returns 0x00 (0000ms, 0737ms total)
T16E4 002:018 JLINK_WriteReg(R9, 0x2000017C)  returns 0x00 (0000ms, 0737ms total)
T16E4 002:018 JLINK_WriteReg(R10, 0x00000000)  returns 0x00 (0000ms, 0737ms total)
T16E4 002:018 JLINK_WriteReg(R11, 0x00000000)  returns 0x00 (0000ms, 0737ms total)
T16E4 002:018 JLINK_WriteReg(R12, 0x00000000)  returns 0x00 (0000ms, 0737ms total)
T16E4 002:018 JLINK_WriteReg(R13 (SP), 0x20000800)  returns 0x00 (0000ms, 0737ms total)
T16E4 002:018 JLINK_WriteReg(R14, 0x20000001)  returns 0x00 (0000ms, 0737ms total)
T16E4 002:018 JLINK_WriteReg(R15 (PC), 0x20000108)  returns 0x00 (0000ms, 0737ms total)
T16E4 002:018 JLINK_WriteReg(XPSR, 0x01000000)  returns 0x00 (0000ms, 0737ms total)
T16E4 002:018 JLINK_WriteReg(MSP, 0x20000800)  returns 0x00 (0001ms, 0738ms total)
T16E4 002:019 JLINK_WriteReg(PSP, 0x20000800)  returns 0x00 (0000ms, 0738ms total)
T16E4 002:019 JLINK_WriteReg(CFBP, 0x00000000)  returns 0x00 (0000ms, 0738ms total)
T16E4 002:019 JLINK_SetBPEx(Addr = 0x20000000, Type = 0xFFFFFFF2)  returns 0x00000008 (0000ms, 0738ms total)
T16E4 002:019 JLINK_Go() (0002ms, 0740ms total)
T16E4 002:021 JLINK_IsHalted()  returns FALSE (0000ms, 0740ms total)
T16E4 002:070 JLINK_IsHalted() -- CPU_ReadMem(2 bytes @ 0x20000000)  returns TRUE (0004ms, 0744ms total)
T16E4 002:074 JLINK_ReadReg(R15 (PC))  returns 0x20000000 (0000ms, 0740ms total)
T16E4 002:074 JLINK_ClrBPEx(BPHandle = 0x00000008)  returns 0x00 (0000ms, 0740ms total)
T16E4 002:074 JLINK_ReadReg(R0)  returns 0x00000000 (0000ms, 0740ms total)
T16E4 002:075 JLINK_WriteMem(0x20000180, 0x0400 Bytes, ...) - Data: F3 BF 12 1D 5C BF 51 F8 04 3D 40 F8 04 3D AF F3 ... -- CPU_WriteMem(1024 bytes @ 0x20000180)  returns 0x400 (0012ms, 0752ms total)
T16E4 002:087 JLINK_WriteReg(R0, 0x08000400)  returns 0x00 (0000ms, 0752ms total)
T16E4 002:087 JLINK_WriteReg(R1, 0x00000400)  returns 0x00 (0000ms, 0752ms total)
T16E4 002:087 JLINK_WriteReg(R2, 0x20000180)  returns 0x00 (0000ms, 0752ms total)
T16E4 002:088 JLINK_WriteReg(R3, 0x00000000)  returns 0x00 (0000ms, 0752ms total)
T16E4 002:088 JLINK_WriteReg(R4, 0x00000000)  returns 0x00 (0000ms, 0752ms total)
T16E4 002:088 JLINK_WriteReg(R5, 0x00000000)  returns 0x00 (0000ms, 0752ms total)
T16E4 002:088 JLINK_WriteReg(R6, 0x00000000)  returns 0x00 (0000ms, 0752ms total)
T16E4 002:088 JLINK_WriteReg(R7, 0x00000000)  returns 0x00 (0000ms, 0752ms total)
T16E4 002:088 JLINK_WriteReg(R8, 0x00000000)  returns 0x00 (0000ms, 0752ms total)
T16E4 002:088 JLINK_WriteReg(R9, 0x2000017C)  returns 0x00 (0000ms, 0752ms total)
T16E4 002:088 JLINK_WriteReg(R10, 0x00000000)  returns 0x00 (0000ms, 0752ms total)
T16E4 002:088 JLINK_WriteReg(R11, 0x00000000)  returns 0x00 (0000ms, 0752ms total)
T16E4 002:088 JLINK_WriteReg(R12, 0x00000000)  returns 0x00 (0000ms, 0752ms total)
T16E4 002:088 JLINK_WriteReg(R13 (SP), 0x20000800)  returns 0x00 (0000ms, 0752ms total)
T16E4 002:088 JLINK_WriteReg(R14, 0x20000001)  returns 0x00 (0000ms, 0752ms total)
T16E4 002:088 JLINK_WriteReg(R15 (PC), 0x20000108)  returns 0x00 (0000ms, 0752ms total)
T16E4 002:089 JLINK_WriteReg(XPSR, 0x01000000)  returns 0x00 (0000ms, 0753ms total)
T16E4 002:089 JLINK_WriteReg(MSP, 0x20000800)  returns 0x00 (0000ms, 0753ms total)
T16E4 002:089 JLINK_WriteReg(PSP, 0x20000800)  returns 0x00 (0000ms, 0753ms total)
T16E4 002:089 JLINK_WriteReg(CFBP, 0x00000000)  returns 0x00 (0000ms, 0753ms total)
T16E4 002:089 JLINK_SetBPEx(Addr = 0x20000000, Type = 0xFFFFFFF2)  returns 0x00000009 (0000ms, 0753ms total)
T16E4 002:089 JLINK_Go() (0002ms, 0755ms total)
T16E4 002:091 JLINK_IsHalted()  returns FALSE (0001ms, 0756ms total)
T16E4 002:119 JLINK_IsHalted() -- CPU_ReadMem(2 bytes @ 0x20000000)  returns TRUE (0004ms, 0759ms total)
T16E4 002:123 JLINK_ReadReg(R15 (PC))  returns 0x20000000 (0000ms, 0755ms total)
T16E4 002:123 JLINK_ClrBPEx(BPHandle = 0x00000009)  returns 0x00 (0000ms, 0755ms total)
T16E4 002:123 JLINK_ReadReg(R0)  returns 0x00000000 (0000ms, 0755ms total)
T16E4 002:124 JLINK_WriteMem(0x20000180, 0x0400 Bytes, ...) - Data: 9C 40 C3 68 1C 43 C4 60 52 1C 10 2A C9 D3 BD E8 ... -- CPU_WriteMem(1024 bytes @ 0x20000180)  returns 0x400 (0013ms, 0768ms total)
T16E4 002:137 JLINK_WriteReg(R0, 0x08000800)  returns 0x00 (0000ms, 0768ms total)
T16E4 002:137 JLINK_WriteReg(R1, 0x00000400)  returns 0x00 (0000ms, 0768ms total)
T16E4 002:137 JLINK_WriteReg(R2, 0x20000180)  returns 0x00 (0000ms, 0768ms total)
T16E4 002:137 JLINK_WriteReg(R3, 0x00000000)  returns 0x00 (0000ms, 0768ms total)
T16E4 002:137 JLINK_WriteReg(R4, 0x00000000)  returns 0x00 (0000ms, 0768ms total)
T16E4 002:137 JLINK_WriteReg(R5, 0x00000000)  returns 0x00 (0000ms, 0768ms total)
T16E4 002:137 JLINK_WriteReg(R6, 0x00000000)  returns 0x00 (0001ms, 0769ms total)
T16E4 002:138 JLINK_WriteReg(R7, 0x00000000)  returns 0x00 (0000ms, 0769ms total)
T16E4 002:138 JLINK_WriteReg(R8, 0x00000000)  returns 0x00 (0000ms, 0769ms total)
T16E4 002:138 JLINK_WriteReg(R9, 0x2000017C)  returns 0x00 (0000ms, 0769ms total)
T16E4 002:138 JLINK_WriteReg(R10, 0x00000000)  returns 0x00 (0000ms, 0769ms total)
T16E4 002:138 JLINK_WriteReg(R11, 0x00000000)  returns 0x00 (0000ms, 0769ms total)
T16E4 002:138 JLINK_WriteReg(R12, 0x00000000)  returns 0x00 (0000ms, 0769ms total)
T16E4 002:138 JLINK_WriteReg(R13 (SP), 0x20000800)  returns 0x00 (0000ms, 0769ms total)
T16E4 002:138 JLINK_WriteReg(R14, 0x20000001)  returns 0x00 (0000ms, 0769ms total)
T16E4 002:138 JLINK_WriteReg(R15 (PC), 0x20000108)  returns 0x00 (0000ms, 0769ms total)
T16E4 002:138 JLINK_WriteReg(XPSR, 0x01000000)  returns 0x00 (0000ms, 0769ms total)
T16E4 002:138 JLINK_WriteReg(MSP, 0x20000800)  returns 0x00 (0000ms, 0769ms total)
T16E4 002:138 JLINK_WriteReg(PSP, 0x20000800)  returns 0x00 (0000ms, 0769ms total)
T16E4 002:138 JLINK_WriteReg(CFBP, 0x00000000)  returns 0x00 (0000ms, 0769ms total)
T16E4 002:138 JLINK_SetBPEx(Addr = 0x20000000, Type = 0xFFFFFFF2)  returns 0x0000000A (0001ms, 0770ms total)
T16E4 002:139 JLINK_Go() (0002ms, 0772ms total)
T16E4 002:141 JLINK_IsHalted()  returns FALSE (0000ms, 0772ms total)
T16E4 002:149 JLINK_IsHalted() -- CPU_ReadMem(2 bytes @ 0x20000000)  returns TRUE (0005ms, 0777ms total)
T16E4 002:154 JLINK_ReadReg(R15 (PC))  returns 0x20000000 (0000ms, 0772ms total)
T16E4 002:154 JLINK_ClrBPEx(BPHandle = 0x0000000A)  returns 0x00 (0000ms, 0772ms total)
T16E4 002:154 JLINK_ReadReg(R0)  returns 0x00000000 (0000ms, 0772ms total)
T16E4 002:154 JLINK_WriteMem(0x20000180, 0x0400 Bytes, ...) - Data: 18 D0 46 F0 02 00 01 F0 91 F9 DB F8 00 00 A3 7C ... -- CPU_WriteMem(1024 bytes @ 0x20000180)  returns 0x400 (0013ms, 0785ms total)
T16E4 002:167 JLINK_WriteReg(R0, 0x08000C00)  returns 0x00 (0000ms, 0785ms total)
T16E4 002:167 JLINK_WriteReg(R1, 0x00000400)  returns 0x00 (0000ms, 0785ms total)
T16E4 002:167 JLINK_WriteReg(R2, 0x20000180)  returns 0x00 (0000ms, 0785ms total)
T16E4 002:167 JLINK_WriteReg(R3, 0x00000000)  returns 0x00 (0000ms, 0785ms total)
T16E4 002:167 JLINK_WriteReg(R4, 0x00000000)  returns 0x00 (0000ms, 0785ms total)
T16E4 002:167 JLINK_WriteReg(R5, 0x00000000)  returns 0x00 (0000ms, 0785ms total)
T16E4 002:167 JLINK_WriteReg(R6, 0x00000000)  returns 0x00 (0001ms, 0786ms total)
T16E4 002:168 JLINK_WriteReg(R7, 0x00000000)  returns 0x00 (0000ms, 0786ms total)
T16E4 002:168 JLINK_WriteReg(R8, 0x00000000)  returns 0x00 (0000ms, 0786ms total)
T16E4 002:168 JLINK_WriteReg(R9, 0x2000017C)  returns 0x00 (0000ms, 0786ms total)
T16E4 002:168 JLINK_WriteReg(R10, 0x00000000)  returns 0x00 (0000ms, 0786ms total)
T16E4 002:168 JLINK_WriteReg(R11, 0x00000000)  returns 0x00 (0000ms, 0786ms total)
T16E4 002:168 JLINK_WriteReg(R12, 0x00000000)  returns 0x00 (0000ms, 0786ms total)
T16E4 002:168 JLINK_WriteReg(R13 (SP), 0x20000800)  returns 0x00 (0000ms, 0786ms total)
T16E4 002:168 JLINK_WriteReg(R14, 0x20000001)  returns 0x00 (0000ms, 0786ms total)
T16E4 002:168 JLINK_WriteReg(R15 (PC), 0x20000108)  returns 0x00 (0000ms, 0786ms total)
T16E4 002:168 JLINK_WriteReg(XPSR, 0x01000000)  returns 0x00 (0000ms, 0786ms total)
T16E4 002:168 JLINK_WriteReg(MSP, 0x20000800)  returns 0x00 (0000ms, 0786ms total)
T16E4 002:168 JLINK_WriteReg(PSP, 0x20000800)  returns 0x00 (0000ms, 0786ms total)
T16E4 002:168 JLINK_WriteReg(CFBP, 0x00000000)  returns 0x00 (0000ms, 0786ms total)
T16E4 002:168 JLINK_SetBPEx(Addr = 0x20000000, Type = 0xFFFFFFF2)  returns 0x0000000B (0001ms, 0787ms total)
T16E4 002:169 JLINK_Go() (0002ms, 0789ms total)
T16E4 002:171 JLINK_IsHalted()  returns FALSE (0001ms, 0790ms total)
T16E4 002:179 JLINK_IsHalted() -- CPU_ReadMem(2 bytes @ 0x20000000)  returns TRUE (0003ms, 0792ms total)
T16E4 002:182 JLINK_ReadReg(R15 (PC))  returns 0x20000000 (0001ms, 0790ms total)
T16E4 002:183 JLINK_ClrBPEx(BPHandle = 0x0000000B)  returns 0x00 (0000ms, 0790ms total)
T16E4 002:183 JLINK_ReadReg(R0)  returns 0x00000000 (0000ms, 0790ms total)
T16E4 002:183 JLINK_WriteMem(0x20000180, 0x0400 Bytes, ...) - Data: F0 81 1C 20 FF F7 08 FF 00 28 F8 D0 0D B1 05 61 ... -- CPU_WriteMem(1024 bytes @ 0x20000180)  returns 0x400 (0014ms, 0804ms total)
T16E4 002:197 JLINK_WriteReg(R0, 0x08001000)  returns 0x00 (0000ms, 0804ms total)
T16E4 002:197 JLINK_WriteReg(R1, 0x00000400)  returns 0x00 (0000ms, 0804ms total)
T16E4 002:197 JLINK_WriteReg(R2, 0x20000180)  returns 0x00 (0000ms, 0804ms total)
T16E4 002:197 JLINK_WriteReg(R3, 0x00000000)  returns 0x00 (0000ms, 0804ms total)
T16E4 002:197 JLINK_WriteReg(R4, 0x00000000)  returns 0x00 (0000ms, 0804ms total)
T16E4 002:197 JLINK_WriteReg(R5, 0x00000000)  returns 0x00 (0000ms, 0804ms total)
T16E4 002:197 JLINK_WriteReg(R6, 0x00000000)  returns 0x00 (0000ms, 0804ms total)
T16E4 002:197 JLINK_WriteReg(R7, 0x00000000)  returns 0x00 (0000ms, 0804ms total)
T16E4 002:197 JLINK_WriteReg(R8, 0x00000000)  returns 0x00 (0000ms, 0804ms total)
T16E4 002:197 JLINK_WriteReg(R9, 0x2000017C)  returns 0x00 (0000ms, 0804ms total)
T16E4 002:197 JLINK_WriteReg(R10, 0x00000000)  returns 0x00 (0000ms, 0804ms total)
T16E4 002:197 JLINK_WriteReg(R11, 0x00000000)  returns 0x00 (0001ms, 0805ms total)
T16E4 002:198 JLINK_WriteReg(R12, 0x00000000)  returns 0x00 (0000ms, 0805ms total)
T16E4 002:198 JLINK_WriteReg(R13 (SP), 0x20000800)  returns 0x00 (0000ms, 0805ms total)
T16E4 002:198 JLINK_WriteReg(R14, 0x20000001)  returns 0x00 (0000ms, 0805ms total)
T16E4 002:198 JLINK_WriteReg(R15 (PC), 0x20000108)  returns 0x00 (0000ms, 0805ms total)
T16E4 002:198 JLINK_WriteReg(XPSR, 0x01000000)  returns 0x00 (0000ms, 0805ms total)
T16E4 002:198 JLINK_WriteReg(MSP, 0x20000800)  returns 0x00 (0000ms, 0805ms total)
T16E4 002:198 JLINK_WriteReg(PSP, 0x20000800)  returns 0x00 (0000ms, 0805ms total)
T16E4 002:198 JLINK_WriteReg(CFBP, 0x00000000)  returns 0x00 (0000ms, 0805ms total)
T16E4 002:198 JLINK_SetBPEx(Addr = 0x20000000, Type = 0xFFFFFFF2)  returns 0x0000000C (0000ms, 0805ms total)
T16E4 002:198 JLINK_Go() (0002ms, 0807ms total)
T16E4 002:200 JLINK_IsHalted()  returns FALSE (0001ms, 0808ms total)
T16E4 002:236 JLINK_IsHalted() -- CPU_ReadMem(2 bytes @ 0x20000000)  returns TRUE (0004ms, 0811ms total)
T16E4 002:240 JLINK_ReadReg(R15 (PC))  returns 0x20000000 (0000ms, 0807ms total)
T16E4 002:240 JLINK_ClrBPEx(BPHandle = 0x0000000C)  returns 0x00 (0000ms, 0807ms total)
T16E4 002:240 JLINK_ReadReg(R0)  returns 0x00000000 (0000ms, 0807ms total)
T16E4 002:241 JLINK_WriteMem(0x20000180, 0x0400 Bytes, ...) - Data: 70 47 B0 F9 02 20 B1 F9 06 30 9A 42 13 DC B1 F9 ... -- CPU_WriteMem(1024 bytes @ 0x20000180)  returns 0x400 (0012ms, 0819ms total)
T16E4 002:253 JLINK_WriteReg(R0, 0x08001400)  returns 0x00 (0000ms, 0819ms total)
T16E4 002:253 JLINK_WriteReg(R1, 0x00000400)  returns 0x00 (0000ms, 0819ms total)
T16E4 002:253 JLINK_WriteReg(R2, 0x20000180)  returns 0x00 (0000ms, 0819ms total)
T16E4 002:253 JLINK_WriteReg(R3, 0x00000000)  returns 0x00 (0000ms, 0819ms total)
T16E4 002:253 JLINK_WriteReg(R4, 0x00000000)  returns 0x00 (0000ms, 0819ms total)
T16E4 002:253 JLINK_WriteReg(R5, 0x00000000)  returns 0x00 (0000ms, 0819ms total)
T16E4 002:253 JLINK_WriteReg(R6, 0x00000000)  returns 0x00 (0000ms, 0819ms total)
T16E4 002:253 JLINK_WriteReg(R7, 0x00000000)  returns 0x00 (0000ms, 0819ms total)
T16E4 002:253 JLINK_WriteReg(R8, 0x00000000)  returns 0x00 (0000ms, 0819ms total)
T16E4 002:253 JLINK_WriteReg(R9, 0x2000017C)  returns 0x00 (0000ms, 0819ms total)
T16E4 002:254 JLINK_WriteReg(R10, 0x00000000)  returns 0x00 (0000ms, 0820ms total)
T16E4 002:254 JLINK_WriteReg(R11, 0x00000000)  returns 0x00 (0000ms, 0820ms total)
T16E4 002:254 JLINK_WriteReg(R12, 0x00000000)  returns 0x00 (0000ms, 0820ms total)
T16E4 002:254 JLINK_WriteReg(R13 (SP), 0x20000800)  returns 0x00 (0000ms, 0820ms total)
T16E4 002:254 JLINK_WriteReg(R14, 0x20000001)  returns 0x00 (0000ms, 0820ms total)
T16E4 002:254 JLINK_WriteReg(R15 (PC), 0x20000108)  returns 0x00 (0000ms, 0820ms total)
T16E4 002:254 JLINK_WriteReg(XPSR, 0x01000000)  returns 0x00 (0000ms, 0820ms total)
T16E4 002:254 JLINK_WriteReg(MSP, 0x20000800)  returns 0x00 (0000ms, 0820ms total)
T16E4 002:254 JLINK_WriteReg(PSP, 0x20000800)  returns 0x00 (0000ms, 0820ms total)
T16E4 002:254 JLINK_WriteReg(CFBP, 0x00000000)  returns 0x00 (0000ms, 0820ms total)
T16E4 002:254 JLINK_SetBPEx(Addr = 0x20000000, Type = 0xFFFFFFF2)  returns 0x0000000D (0000ms, 0820ms total)
T16E4 002:254 JLINK_Go() (0003ms, 0823ms total)
T16E4 002:257 JLINK_IsHalted()  returns FALSE (0000ms, 0823ms total)
T16E4 002:262 JLINK_IsHalted() -- CPU_ReadMem(2 bytes @ 0x20000000)  returns TRUE (0004ms, 0827ms total)
T16E4 002:266 JLINK_ReadReg(R15 (PC))  returns 0x20000000 (0000ms, 0823ms total)
T16E4 002:266 JLINK_ClrBPEx(BPHandle = 0x0000000D)  returns 0x00 (0000ms, 0823ms total)
T16E4 002:266 JLINK_ReadReg(R0)  returns 0x00000000 (0000ms, 0823ms total)
T16E4 002:267 JLINK_WriteMem(0x20000180, 0x0400 Bytes, ...) - Data: 49 1E 03 F8 01 2B 00 29 EF D1 7B E7 0A 48 10 B5 ... -- CPU_WriteMem(1024 bytes @ 0x20000180)  returns 0x400 (0013ms, 0836ms total)
T16E4 002:280 JLINK_WriteReg(R0, 0x08001800)  returns 0x00 (0000ms, 0836ms total)
T16E4 002:280 JLINK_WriteReg(R1, 0x00000400)  returns 0x00 (0000ms, 0836ms total)
T16E4 002:280 JLINK_WriteReg(R2, 0x20000180)  returns 0x00 (0000ms, 0836ms total)
T16E4 002:280 JLINK_WriteReg(R3, 0x00000000)  returns 0x00 (0000ms, 0836ms total)
